!Hittite Microwave Corporation								
!12 Elizabeth Drive								
!Chelmsford, MA 01824								
!Tel: 978-250-3343								
!Fax: 978-250-3373								
!Device: HMC476MP86, DC-6 GHz, SiGe HBT Gain Block MMIC Amplifier in Micro-P package								
!Misc: Vs = 5V, Room							
!
# MHZ S MA R 50

50 0.276 121.099 12.253 136.859 0.066 -42.18 0.2 121.329
116.333 0.113 123.786 12.63 156.527 0.068 -17.649 0.05 100.023
182.667 0.09 116.241 12.538 159.189 0.068 -10.125 0.041 79.662
249 0.083 108.46 12.405 158.635 0.067 -5.816 0.04 75.383
315.333 0.08 100.702 12.259 156.914 0.066 -2.674 0.039 76.54
381.667 0.079 92.924 12.108 154.638 0.066 -0.087 0.039 79.699
448 0.079 85.103 11.954 152.055 0.065 2.192 0.038 83.728
514.333 0.079 73.047 11.8 149.29 0.065 3.973 0.036 74.535
580.667 0.08 63.941 11.647 146.431 0.066 5.383 0.036 72.108
647 0.082 51.595 11.456 143.66 0.066 6.918 0.033 41.122
713.333 0.085 40.772 11.272 140.767 0.066 8.338 0.033 28.66
779.667 0.088 28.976 11.072 137.99 0.067 9.702 0.032 -0.57
846 0.091 18.55 10.886 135.249 0.067 11.3 0.034 -11.192
912.333 0.095 7.046 10.672 132.553 0.068 12.238 0.037 -28.928
978.667 0.099 -2.307 10.464 129.779 0.069 13.626 0.042 -34.97
1045 0.104 -15.014 10.225 127.17 0.07 14.883 0.049 -32.864
1111.333 0.108 -20.175 10.005 124.618 0.071 15.93 0.054 -33.335
1177.667 0.113 -28.028 9.766 122.206 0.072 16.935 0.057 -34.37
1244 0.118 -29.89 9.547 119.731 0.072 18.289 0.059 -37.898
1310.333 0.122 -35.946 9.358 117.5 0.074 18.807 0.059 -42.109
1376.667 0.127 -38.157 9.151 115.232 0.076 19.708 0.059 -51.286
1443 0.132 -43.518 8.941 112.925 0.076 20.189 0.06 -49.137
1509.333 0.137 -45.044 8.763 110.793 0.078 21.238 0.061 -69.996
1575.667 0.143 -50.131 8.566 108.653 0.079 21.675 0.064 -70.252
1642 0.148 -51.68 8.378 106.387 0.081 22.032 0.069 -92.919
1708.333 0.153 -59.042 8.204 104.514 0.083 22.876 0.072 -83.756
1774.667 0.158 -61.97 8.008 102.399 0.084 23.777 0.078 -93.003
1841 0.161 -68.214 7.85 100.341 0.084 22.858 0.081 -84.414
1907.333 0.164 -71.69 7.667 98.546 0.087 24.142 0.086 -94.77
1973.667 0.166 -76.892 7.521 96.498 0.088 24.984 0.088 -90.452
2040 0.167 -80.778 7.298 94.946 0.09 23.345 0.089 -92.941
2106.333 0.169 -84.374 7.172 93.275 0.092 25.695 0.09 -91.127
2172.667 0.169 -87.444 7.031 91.613 0.093 25.108 0.09 -95.957
2239 0.17 -88.155 6.837 89.696 0.098 25.13 0.092 -102.553
2305.333 0.171 -92.697 6.694 88.479 0.096 25.969 0.094 -109.895
2371.667 0.172 -94.689 6.564 87.155 0.099 24.886 0.097 -115.754
2438 0.174 -100.336 6.433 85.308 0.102 26.329 0.099 -115.595
2504.333 0.175 -102.419 6.316 84.176 0.101 25.271 0.105 -123.466
2570.667 0.177 -106.52 6.216 83.184 0.105 24.781 0.109 -123.698
2637 0.178 -108.868 6.109 81.659 0.105 26.883 0.117 -134.496
2703.333 0.177 -114.971 6.042 80.474 0.106 24.211 0.117 -128.273
2769.667 0.176 -117.987 5.97 79.038 0.11 25.225 0.121 -133.93
2836 0.174 -123.873 5.89 77.514 0.108 24.86 0.117 -125.749
2902.333 0.17 -126.031 5.846 76.33 0.113 24.385 0.121 -135.364
2968.667 0.166 -130.346 5.744 74.481 0.112 25.079 0.115 -129.748
3035 0.161 -134.363 5.744 72.913 0.115 22.394 0.115 -139.67
3101.333 0.156 -136.747 5.602 71.249 0.117 25.009 0.108 -133.131
3167.667 0.15 -139.321 5.54 69.547 0.116 23.961 0.106 -140.189
3234 0.145 -142.619 5.409 68.426 0.12 24.416 0.1 -139.473
3300.333 0.139 -147.112 5.353 66.276 0.12 24.028 0.1 -148.04
3366.667 0.135 -150.766 5.265 65.237 0.122 24.226 0.095 -146.736
3433 0.13 -156.311 5.144 63.449 0.122 23.981 0.094 -150.983
3499.333 0.126 -160.318 5.091 62.508 0.126 24.021 0.089 -147.679
3565.667 0.122 -167.059 4.99 61.069 0.128 24.177 0.089 -151.95
3632 0.116 -169.903 4.962 60.028 0.13 23.764 0.087 -153.702
3698.333 0.112 -178.18 4.852 58.75 0.131 23.72 0.082 -151.868
3764.667 0.106 177.144 4.809 57.499 0.134 23.344 0.08 -152.462
3831 0.104 167.9 4.723 56.284 0.135 23.175 0.072 -147.471
3897.333 0.096 165.68 4.694 55.103 0.138 22.933 0.066 -143.995
3963.667 0.091 158.616 4.624 53.878 0.139 22.334 0.059 -139.421
4030 0.083 155.192 4.594 52.458 0.142 22.088 0.051 -133.392
4096.333 0.078 146.66 4.524 51.444 0.143 21.741 0.05 -131.683
4162.667 0.07 141.006 4.49 50.1 0.145 21.104 0.049 -130.167
4229 0.066 132.377 4.428 49.131 0.146 20.851 0.046 -122.444
4295.333 0.064 125.743 4.391 47.59 0.148 20.103 0.049 -119.82
4361.667 0.065 119.247 4.338 46.676 0.15 19.929 0.049 -111.041
4428 0.066 114.651 4.291 45.141 0.152 19.461 0.054 -107.298
4494.333 0.068 88.925 4.249 44.373 0.154 19.204 0.058 -97.096
4560.667 0.061 80.162 4.21 43.08 0.155 18.597 0.067 -97.262
4627 0.056 74.156 4.199 41.908 0.157 18.378 0.075 -93.117
4693.333 0.057 68.758 4.144 40.497 0.159 17.773 0.086 -96.454
4759.667 0.056 59.793 4.117 39.247 0.161 17.471 0.093 -92.503
4826 0.061 50.867 4.077 38.086 0.162 16.616 0.106 -98.028
4892.333 0.062 37.989 4.048 36.709 0.164 16.412 0.111 -91.956
4958.667 0.065 27.422 4.009 35.412 0.166 15.989 0.12 -93.207
5025 0.066 16.284 3.971 34.152 0.167 15.432 0.128 -91.902
5091.333 0.07 8.262 3.933 32.894 0.169 15.021 0.136 -93.875
5157.667 0.073 -0.828 3.891 31.645 0.171 14.531 0.144 -94.965
5224 0.078 -6.274 3.851 30.348 0.173 13.908 0.154 -99.607
5290.333 0.08 -16.425 3.809 29.2 0.174 13.27 0.159 -99.15
5356.667 0.083 -23.955 3.766 28.166 0.176 12.895 0.165 -100.899
5423 0.086 -34.464 3.749 27.028 0.177 12.308 0.169 -98.953
5489.333 0.091 -39.135 3.717 26.139 0.179 12.165 0.177 -103.63
5555.667 0.097 -44.532 3.701 24.941 0.181 11.455 0.183 -106.547
5622 0.103 -48.432 3.693 24.101 0.183 11.421 0.191 -112.126
5688.333 0.109 -53.843 3.688 22.566 0.184 10.152 0.196 -114.694
5754.667 0.115 -58.769 3.674 21.139 0.188 9.532 0.202 -117.927
5821 0.123 -61.942 3.65 19.55 0.185 9.15 0.209 -121.029
5887.333 0.131 -66.764 3.636 17.81 0.191 8.263 0.216 -125.007
5953.667 0.14 -70.168 3.604 16.1 0.192 8.352 0.224 -128.995
6020 0.15 -73.194 3.579 14.638 0.192 6.188 0.231 -131.533
6086.333 0.16 -77.557 3.493 12.845 0.194 6.383 0.239 -134.744
6152.667 0.17 -81.737 3.447 11.388 0.193 5.499 0.246 -137.599
6219 0.18 -86.1 3.351 10.451 0.196 4.851 0.252 -139.778
6285.333 0.19 -91.054 3.326 9.235 0.197 4.859 0.256 -140.739
6351.667 0.201 -96.174 3.258 8.984 0.195 3.459 0.259 -141.693
6418 0.21 -100.339 3.177 7.293 0.205 3.433 0.259 -139.913
6484.333 0.219 -103.854 3.236 8.305 0.196 4.959 0.265 -145.631
6550.667 0.228 -107.081 3.186 7.419 0.2 1.866 0.265 -147.858
6617 0.235 -108.424 3.241 6.478 0.211 5.249 0.267 -153.049
6683.333 0.246 -114.145 3.219 6.242 0.2 1.081 0.265 -153.566
6749.667 0.253 -116.31 3.275 4.318 0.212 2.097 0.264 -156.144
6816 0.263 -118.694 3.304 3.654 0.201 1.631 0.264 -156.863
6882.333 0.272 -122.254 3.274 1.318 0.215 -0.597 0.265 -162.227
6948.667 0.28 -123.809 3.328 -0.726 0.215 2.17 0.267 -164.574
7015 0.291 -127.026 3.308 -3.189 0.207 -1.612 0.268 -167.14
7081.333 0.3 -130.689 3.255 -5.145 0.223 -1.955 0.269 -171.189
7147.667 0.311 -134.147 3.226 -6.968 0.222 -1.677 0.273 -174.067
7214 0.322 -136.331 3.142 -9.332 0.212 -3.862 0.276 -173.05
7280.333 0.333 -141.379 3.111 -11.289 0.23 -3.499 0.281 -179.015
7346.667 0.343 -143.303 3.043 -11.821 0.227 -6.082 0.287 -179.402
7413 0.353 -145.751 2.892 -13.364 0.231 -6.896 0.294 178.175
7479.333 0.363 -148.793 2.928 -14.767 0.221 -5.249 0.305 173.258
7545.667 0.371 -151.364 2.854 -14.817 0.228 -9.925 0.311 171.349
7612 0.38 -154.923 2.826 -15.755 0.227 -6.701 0.321 168.557
7678.333 0.388 -158.491 2.786 -15.932 0.226 -10.135 0.326 170.042
7744.667 0.395 -161.537 2.78 -17.253 0.225 -9.506 0.333 168.339
7811 0.401 -165.058 2.859 -17.8 0.221 -12.335 0.337 168.435
7877.333 0.405 -167.66 2.796 -18.621 0.232 -11.286 0.343 164.812
7943.667 0.41 -170.861 2.792 -19.716 0.219 -10.655 0.35 163.252
8010 0.413 -173.871 2.8 -23.08 0.229 -13.045 0.35 161.78
8076.333 0.417 -176.664 2.848 -23.57 0.223 -12.533 0.354 160.028
8142.667 0.42 -179.593 2.787 -25.934 0.229 -11.883 0.357 158.465
8209 0.424 177.579 2.759 -27.28 0.227 -14.048 0.36 157.586
8275.333 0.427 175.417 2.714 -30.377 0.226 -12.96 0.365 154.2
8341.667 0.429 171.644 2.685 -32.806 0.239 -12.577 0.367 151.191
8408 0.432 169.854 2.609 -30.234 0.233 -17.166 0.374 148.156
8474.333 0.434 166.646 2.54 -36.079 0.232 -14.054 0.378 145.389
8540.667 0.436 163.399 2.484 -36.17 0.235 -14.904 0.383 141.945
8607 0.438 159.972 2.322 -37.388 0.231 -17.82 0.389 141.955
8673.333 0.438 156.305 2.378 -37.135 0.244 -17.438 0.391 139.011
8739.667 0.44 153.595 2.3 -36.903 0.234 -16.87 0.399 136.414
8806 0.44 150.635 2.252 -40.474 0.234 -19.662 0.403 133.719
8872.333 0.44 147.319 2.261 -37.371 0.248 -18.211 0.407 128.86
8938.667 0.441 143.718 2.238 -38.873 0.232 -20.009 0.412 127.15
9005 0.44 140.27 2.23 -39.257 0.249 -18.234 0.415 124.186
9071.333 0.441 137.347 2.2 -38.747 0.236 -19.405 0.422 121.5
9137.667 0.439 134.208 2.199 -40.489 0.246 -22.808 0.423 120.034
9204 0.439 130.739 2.252 -39.669 0.255 -17.872 0.429 116.258
9270.333 0.438 127.521 2.202 -41.536 0.243 -21.738 0.434 113.878
9336.667 0.435 124.415 2.226 -42.463 0.251 -23.432 0.436 111.243
9403 0.434 120.596 2.229 -43.453 0.256 -21.092 0.441 107.291
9469.333 0.432 117.226 2.21 -45.267 0.248 -25.151 0.442 107.097
9535.667 0.431 113.564 2.218 -45.184 0.253 -24.084 0.445 104.359
9602 0.428 110.009 2.178 -47.466 0.247 -26.038 0.447 104.174
9668.333 0.426 106.698 2.239 -48.142 0.269 -26.621 0.445 102.206
9734.667 0.423 103.309 2.299 -48.819 0.291 -27.207 0.442 100.238
9801 0.421 99.833 2.361 -49.499 0.312 -27.795 0.44 98.27
9867.333 0.418 96.264 2.423 -50.183 0.334 -28.386 0.437 96.302
9933.667 0.415 92.593 2.485 -50.869 0.356 -28.981 0.434 94.334
10000 0.412 88.813 2.549 -51.56 0.379 -29.58 0.431 92.365
